Sample in Buffer,Sample in Window,TRIGGER,i_system_wrapper/system_i/util_fmcjesdadc1_xcvr_rx_out_clk_0,i_system_wrapper/system_i/axi_ad9250_core_adc_data_a[31:0],data_a_high[13:0],i_system_wrapper/system_i/axi_ad9250_core_adc_data_b[31:0],i_system_wrapper/system_i/axi_ad9250_core_rx_ready,i_system_wrapper/system_i/axi_ad9250_core_adc_clk,i_system_wrapper/system_i/axi_ad9250_core_adc_valid_a
Radix - UNSIGNED,UNSIGNED,UNSIGNED,HEX,HEX,SIGNED,HEX,HEX,HEX,HEX
0,0,1,0,00ad006d,173,ff67ffa6,1,0,1
1,1,0,0,0023008d,35,ffebff83,1,0,1
2,2,0,0,ff6dffac,-147,00a30064,1,0,1
3,3,0,0,fffbff8f,-5,00180085,1,0,1
4,4,0,0,00aa0073,170,ff64ffa7,1,0,1
5,5,0,0,0024008d,36,fff0ff85,1,0,1
6,6,0,0,ff6effad,-146,00a50061,1,0,1
7,7,0,0,fff7ff8c,-9,00170083,1,0,1
8,8,0,0,00ac006b,172,ff67ffa5,1,0,1
9,9,0,0,0023008f,35,ffecff84,1,0,1
10,10,0,0,ff6fffae,-145,00a10063,1,0,1
11,11,0,0,fff7ff90,-9,00150081,1,0,1
12,12,0,0,00ac006d,172,ff65ffa2,1,0,1
13,13,0,0,00230089,35,ffeeff82,1,0,1
14,14,0,0,ff6cffad,-148,00a50064,1,0,1
15,15,0,0,fff5ff8c,-11,001c0083,1,0,1
16,16,0,0,00ab006c,171,ff68ffa5,1,0,1
17,17,0,0,0025008c,37,ffecff85,1,0,1
18,18,0,0,ff6fffb0,-145,00a00062,1,0,1
19,19,0,0,fff8ff8f,-8,00150086,1,0,1
20,20,0,0,00ab006f,171,ff64ffa0,1,0,1
21,21,0,0,0022008d,34,fff0ff83,1,0,1
22,22,0,0,ff70ffab,-144,00a10065,1,0,1
23,23,0,0,fff8ff8b,-8,001a0083,1,0,1
24,24,0,0,00ae0070,174,ff65ffa5,1,0,1
25,25,0,0,0025008d,37,ffebff88,1,0,1
26,26,0,0,ff71ffa9,-143,00a10061,1,0,1
27,27,0,0,fff6ff8e,-10,00180084,1,0,1
28,28,0,0,00ad006c,173,ff66ffa6,1,0,1
29,29,0,0,00250089,37,ffeeff82,1,0,1
30,30,0,0,ff6fffae,-145,00a30066,1,0,1
31,31,0,0,fff5ff8e,-11,001e0085,1,0,1
32,32,0,0,00ad006b,173,ff66ffa3,1,0,1
33,33,0,0,0021008d,33,ffeeff84,1,0,1
34,34,0,0,ff6effb1,-146,00a00064,1,0,1
35,35,0,0,fff8ff8f,-8,001a0080,1,0,1
36,36,0,0,00ab006d,171,ff65ffa4,1,0,1
37,37,0,0,0023008d,35,ffecff83,1,0,1
38,38,0,0,ff71ffab,-143,00a10061,1,0,1
39,39,0,0,fff9ff8f,-7,001a0082,1,0,1
40,40,0,0,00ab0070,171,ff68ffa5,1,0,1
41,41,0,0,0025008d,37,ffeeff87,1,0,1
42,42,0,0,ff6cffae,-148,00a10062,1,0,1
43,43,0,0,fff5ff8f,-11,00140084,1,0,1
44,44,0,0,00ad006e,173,ff65ffa3,1,0,1
45,45,0,0,0021008d,33,ffefff84,1,0,1
46,46,0,0,ff70ffac,-144,00a50061,1,0,1
47,47,0,0,fff9ff8b,-7,001b0082,1,0,1
48,48,0,0,00aa006f,170,ff65ffa2,1,0,1
49,49,0,0,0023008d,35,ffedff83,1,0,1
50,50,0,0,ff71ffaf,-143,00a10061,1,0,1
51,51,0,0,fff9ff8c,-7,001c0082,1,0,1
52,52,0,0,00ac006f,172,ff66ffa5,1,0,1
53,53,0,0,0022008e,34,ffeeff83,1,0,1
54,54,0,0,ff70ffaf,-144,009f0063,1,0,1
55,55,0,0,fff8ff8f,-8,00190083,1,0,1
56,56,0,0,00ac006e,172,ff69ffa6,1,0,1
57,57,0,0,0024008c,36,ffecff86,1,0,1
58,58,0,0,ff6effaf,-146,00a20066,1,0,1
59,59,0,0,fff8ff8d,-8,001b0085,1,0,1
60,60,0,0,00ae0070,174,ff65ffa4,1,0,1
61,61,0,0,0024008c,36,ffefff87,1,0,1
62,62,0,0,ff6fffaf,-145,00a10064,1,0,1
63,63,0,0,fff8ff90,-8,001e0081,1,0,1
64,64,0,0,00ae006d,174,ff67ffa5,1,0,1
65,65,0,0,0023008d,35,ffefff86,1,0,1
66,66,0,0,ff72ffaf,-142,00a40063,1,0,1
67,67,0,0,fff9ff8f,-7,00180082,1,0,1
68,68,0,0,00aa006d,170,ff69ffa4,1,0,1
69,69,0,0,00240090,36,fff2ff84,1,0,1
70,70,0,0,ff71ffad,-143,00a30063,1,0,1
71,71,0,0,fffaff8e,-6,001c0083,1,0,1
72,72,0,0,00ac006d,172,ff66ffa8,1,0,1
73,73,0,0,0023008a,35,fff0ff85,1,0,1
74,74,0,0,ff70ffac,-144,00a30067,1,0,1
75,75,0,0,fff8ff8c,-8,001a0086,1,0,1
76,76,0,0,00ad006e,173,ff66ffa3,1,0,1
77,77,0,0,0025008e,37,ffedff85,1,0,1
78,78,0,0,ff6dffaf,-147,00a20064,1,0,1
79,79,0,0,fffaff8f,-6,00160083,1,0,1
80,80,0,0,00b0006f,176,ff67ffa1,1,0,1
81,81,0,0,0023008c,35,ffeeff85,1,0,1
82,82,0,0,ff73ffad,-141,009f0065,1,0,1
83,83,0,0,fff7ff8f,-9,001b0082,1,0,1
84,84,0,0,00ab006f,171,ff65ffa3,1,0,1
85,85,0,0,0024008f,36,ffedff83,1,0,1
86,86,0,0,ff70ffae,-144,00a10061,1,0,1
87,87,0,0,fff8ff8e,-8,001a0082,1,0,1
88,88,0,0,00ab006f,171,ff62ffa3,1,0,1
89,89,0,0,00220090,34,ffeeff86,1,0,1
90,90,0,0,ff71ffae,-143,00a20062,1,0,1
91,91,0,0,fff8ff8e,-8,00190083,1,0,1
92,92,0,0,00ac006d,172,ff66ffa3,1,0,1
93,93,0,0,0026008d,38,ffedff85,1,0,1
94,94,0,0,ff6fffb0,-145,00a00063,1,0,1
95,95,0,0,fff9ff8e,-7,001b0084,1,0,1
96,96,0,0,00af0071,175,ff66ffa6,1,0,1
97,97,0,0,0025008e,37,ffeeff84,1,0,1
98,98,0,0,ff6fffb0,-145,00a10062,1,0,1
99,99,0,0,fff8ff8f,-8,00180081,1,0,1
100,100,0,0,00ab0071,171,ff67ffa2,1,0,1
101,101,0,0,0026008d,38,ffecff84,1,0,1
102,102,0,0,ff6effad,-146,009f0062,1,0,1
103,103,0,0,fff8ff8d,-8,001a0081,1,0,1
104,104,0,0,00b0006d,176,ff66ffa4,1,0,1
105,105,0,0,00260090,38,ffeeff86,1,0,1
106,106,0,0,ff71ffad,-143,00a20060,1,0,1
107,107,0,0,fff9ff8c,-7,00180086,1,0,1
108,108,0,0,00ae006c,174,ff66ffa1,1,0,1
109,109,0,0,0021008f,33,ffefff84,1,0,1
110,110,0,0,ff70ffaf,-144,00a10064,1,0,1
111,111,0,0,fff9ff8d,-7,001a0084,1,0,1
112,112,0,0,00aa006e,170,ff66ffa2,1,0,1
113,113,0,0,0024008d,36,ffecff84,1,0,1
114,114,0,0,ff6effb0,-146,009f0063,1,0,1
115,115,0,0,fffaff90,-6,001b0082,1,0,1
116,116,0,0,00ab006f,171,ff67ffa3,1,0,1
117,117,0,0,0020008f,32,ffeaff83,1,0,1
118,118,0,0,ff6effb0,-146,00a30062,1,0,1
119,119,0,0,fff7ff8e,-9,001a0081,1,0,1
120,120,0,0,00ac006e,172,ff68ffa5,1,0,1
121,121,0,0,00250090,37,ffecff82,1,0,1
122,122,0,0,ff71ffad,-143,00a10064,1,0,1
123,123,0,0,fff8ff8e,-8,00180084,1,0,1
124,124,0,0,00ae006e,174,ff66ffa1,1,0,1
125,125,0,0,0022008e,34,ffedff84,1,0,1
126,126,0,0,ff6dffad,-147,00a10061,1,0,1
127,127,0,0,fff6ff8e,-10,00190083,1,0,1
128,128,0,0,00ab006d,171,ff65ffa3,1,0,1
129,129,0,0,0026008e,38,ffeaff86,1,0,1
130,130,0,0,ff6fffad,-145,009e0063,1,0,1
131,131,0,0,fff6ff8d,-10,001b0082,1,0,1
132,132,0,0,00af006e,175,ff63ffa3,1,0,1
133,133,0,0,00250089,37,ffe9ff85,1,0,1
134,134,0,0,ff6fffac,-145,00a00061,1,0,1
135,135,0,0,fff5ff8e,-11,001a0085,1,0,1
136,136,0,0,00ad006d,173,ff62ffa1,1,0,1
137,137,0,0,0023008b,35,fff0ff86,1,0,1
138,138,0,0,ff71ffae,-143,00a40063,1,0,1
139,139,0,0,fff9ff8f,-7,00190081,1,0,1
140,140,0,0,00ae006c,174,ff66ffa3,1,0,1
141,141,0,0,0023008b,35,fff0ff81,1,0,1
142,142,0,0,ff70ffad,-144,009f0064,1,0,1
143,143,0,0,fff9ff8f,-7,001b0084,1,0,1
144,144,0,0,00ad006d,173,ff68ffa2,1,0,1
145,145,0,0,0025008d,37,ffedff85,1,0,1
146,146,0,0,ff70ffad,-144,00a20065,1,0,1
147,147,0,0,fff7ff8b,-9,001a0083,1,0,1
148,148,0,0,00ac006e,172,ff66ffa6,1,0,1
149,149,0,0,0024008d,36,ffecff87,1,0,1
150,150,0,0,ff6effaa,-146,00a10062,1,0,1
151,151,0,0,fff9ff8e,-7,00190082,1,0,1
152,152,0,0,00ab006d,171,ff65ffa2,1,0,1
153,153,0,0,0023008c,35,ffeeff82,1,0,1
154,154,0,0,ff70ffaf,-144,00a20062,1,0,1
155,155,0,0,fff8ff8d,-8,00190084,1,0,1
156,156,0,0,00ae006e,174,ff68ffa2,1,0,1
157,157,0,0,0023008f,35,fff0ff83,1,0,1
158,158,0,0,ff70ffac,-144,00a10062,1,0,1
159,159,0,0,fff9ff8f,-7,001b0083,1,0,1
160,160,0,0,00ad0070,173,ff68ffa3,1,0,1
161,161,0,0,0026008e,38,ffecff83,1,0,1
162,162,0,0,ff6fffad,-145,00a20062,1,0,1
163,163,0,0,fffaff8e,-6,001b0082,1,0,1
164,164,0,0,00ac0071,172,ff66ffa3,1,0,1
165,165,0,0,0023008e,35,ffedff83,1,0,1
166,166,0,0,ff71ffaf,-143,00a40062,1,0,1
167,167,0,0,fff9ff8c,-7,001a0081,1,0,1
168,168,0,0,00ab006e,171,ff66ffa4,1,0,1
169,169,0,0,00250091,37,ffefff84,1,0,1
170,170,0,0,ff71ffae,-143,00a10065,1,0,1
171,171,0,0,fff7ff8e,-9,00190081,1,0,1
172,172,0,0,00ae0070,174,ff65ffa3,1,0,1
173,173,0,0,0024008d,36,ffedff86,1,0,1
174,174,0,0,ff71ffaf,-143,00a30063,1,0,1
175,175,0,0,fff9ff8e,-7,001b0084,1,0,1
176,176,0,0,00ac006d,172,ff67ffa3,1,0,1
177,177,0,0,0025008e,37,ffeeff86,1,0,1
178,178,0,0,ff72ffad,-142,00a10064,1,0,1
179,179,0,0,fff6ff8f,-10,001a0082,1,0,1
180,180,0,0,00aa006f,170,ff66ffa3,1,0,1
181,181,0,0,00270091,39,ffedff85,1,0,1
182,182,0,0,ff71ffad,-143,009d005f,1,0,1
183,183,0,0,fff7ff8f,-9,001d0082,1,0,1
184,184,0,0,00ac006c,172,ff64ffa5,1,0,1
185,185,0,0,0026008e,38,ffedff84,1,0,1
186,186,0,0,ff71ffaf,-143,009f0062,1,0,1
187,187,0,0,fff6ff8b,-10,001d0084,1,0,1
188,188,0,0,00ac006f,172,ff66ffa5,1,0,1
189,189,0,0,0022008e,34,ffecff82,1,0,1
190,190,0,0,ff71ffaf,-143,00a10063,1,0,1
191,191,0,0,fffbff8d,-5,00170084,1,0,1
192,192,0,0,00ac0070,172,ff63ffa0,1,0,1
193,193,0,0,0024008d,36,ffedff82,1,0,1
194,194,0,0,ff6fffae,-145,00a20060,1,0,1
195,195,0,0,fff9ff8e,-7,001b0084,1,0,1
196,196,0,0,00ac006c,172,ff66ffa4,1,0,1
197,197,0,0,0022008d,34,ffeeff85,1,0,1
198,198,0,0,ff70ffb1,-144,009f0061,1,0,1
199,199,0,0,fff9ff90,-7,001b0082,1,0,1
200,200,0,0,00af006d,175,ff63ffa4,1,0,1
201,201,0,0,0023008d,35,ffeeff84,1,0,1
202,202,0,0,ff6dffaf,-147,00a0005f,1,0,1
203,203,0,0,fff9ff90,-7,001a0081,1,0,1
204,204,0,0,00aa006b,170,ff64ffa5,1,0,1
205,205,0,0,0026008a,38,ffedff85,1,0,1
206,206,0,0,ff6fffb0,-145,00a20062,1,0,1
207,207,0,0,fff8ff8d,-8,001a0080,1,0,1
208,208,0,0,00ad006e,173,ff67ffa4,1,0,1
209,209,0,0,0024008e,36,ffedff87,1,0,1
210,210,0,0,ff70ffb0,-144,009e0062,1,0,1
211,211,0,0,fff8ff8f,-8,00180081,1,0,1
212,212,0,0,00ac0071,172,ff65ffa1,1,0,1
213,213,0,0,00270090,39,ffecff85,1,0,1
214,214,0,0,ff71ffab,-143,00a10063,1,0,1
215,215,0,0,fff7ff8d,-9,00160084,1,0,1
216,216,0,0,00ac006e,172,ff66ffa1,1,0,1
217,217,0,0,0025008e,37,ffecff84,1,0,1
218,218,0,0,ff72ffae,-142,00a00064,1,0,1
219,219,0,0,fff7ff8f,-9,001c0080,1,0,1
220,220,0,0,00ac0072,172,ff64ffa2,1,0,1
221,221,0,0,0025008c,37,ffedff82,1,0,1
222,222,0,0,ff72ffac,-142,00a00061,1,0,1
223,223,0,0,fff8ff8b,-8,001a0082,1,0,1
224,224,0,0,00ad006f,173,ff65ffa1,1,0,1
225,225,0,0,0024008d,36,ffedff86,1,0,1
226,226,0,0,ff6effaf,-146,009f0064,1,0,1
227,227,0,0,fff8ff8f,-8,00160083,1,0,1
228,228,0,0,00ae006e,174,ff65ffa2,1,0,1
229,229,0,0,0027008d,39,ffeeff83,1,0,1
230,230,0,0,ff72ffac,-142,00a10065,1,0,1
231,231,0,0,fff7ff91,-9,001b0084,1,0,1
232,232,0,0,00af0072,175,ff65ffa2,1,0,1
233,233,0,0,0023008d,35,ffedff83,1,0,1
234,234,0,0,ff70ffb0,-144,00a30062,1,0,1
235,235,0,0,fff8ff8d,-8,00190085,1,0,1
236,236,0,0,00ad006f,173,ff66ffa6,1,0,1
237,237,0,0,0027008f,39,ffedff84,1,0,1
238,238,0,0,ff6fffae,-145,009f0062,1,0,1
239,239,0,0,fff6ff8e,-10,00180081,1,0,1
240,240,0,0,00ad006f,173,ff66ffa3,1,0,1
241,241,0,0,0026008e,38,ffebff83,1,0,1
242,242,0,0,ff72ffb0,-142,00a10061,1,0,1
243,243,0,0,fff7ff8d,-9,00190081,1,0,1
244,244,0,0,00ad006f,173,ff67ffa3,1,0,1
245,245,0,0,0026008e,38,ffebff82,1,0,1
246,246,0,0,ff71ffb1,-143,00a00062,1,0,1
247,247,0,0,fff8ff8d,-8,00190082,1,0,1
248,248,0,0,00af006f,175,ff66ffa4,1,0,1
249,249,0,0,0024008e,36,ffeeff83,1,0,1
250,250,0,0,ff6cffb0,-148,00a20063,1,0,1
251,251,0,0,fff9ff8e,-7,00170081,1,0,1
252,252,0,0,00ac0070,172,ff65ffa3,1,0,1
253,253,0,0,0022008e,34,ffedff84,1,0,1
254,254,0,0,ff70ffaf,-144,00a30063,1,0,1
255,255,0,0,fff8ff92,-8,00170080,1,0,1
256,256,0,0,00ac006e,172,ff66ffa3,1,0,1
257,257,0,0,0025008d,37,ffeeff83,1,0,1
258,258,0,0,ff6fffb0,-145,00a10063,1,0,1
259,259,0,0,fff9ff8f,-7,001a0082,1,0,1
260,260,0,0,00ac0070,172,ff66ffa4,1,0,1
261,261,0,0,0023008f,35,ffeeff85,1,0,1
262,262,0,0,ff70ffad,-144,00a40065,1,0,1
263,263,0,0,fff7ff8f,-9,001b0083,1,0,1
264,264,0,0,00ab006f,171,ff67ffa2,1,0,1
265,265,0,0,0024008d,36,ffedff86,1,0,1
266,266,0,0,ff70ffaf,-144,00a20065,1,0,1
267,267,0,0,fff8ff8e,-8,001a0084,1,0,1
268,268,0,0,00af0071,175,ff62ffa2,1,0,1
269,269,0,0,0028008f,40,ffecff87,1,0,1
270,270,0,0,ff6effb1,-146,00a10063,1,0,1
271,271,0,0,fff7ff8e,-9,00170081,1,0,1
272,272,0,0,00ac006c,172,ff65ffa3,1,0,1
273,273,0,0,0025008d,37,ffecff82,1,0,1
274,274,0,0,ff6effaf,-146,00a10063,1,0,1
275,275,0,0,fffbff8e,-5,001a0085,1,0,1
276,276,0,0,00aa006f,170,ff65ffa2,1,0,1
277,277,0,0,0024008e,36,ffeeff83,1,0,1
278,278,0,0,ff71ffad,-143,00a30064,1,0,1
279,279,0,0,fffcff90,-4,00180084,1,0,1
280,280,0,0,00ac0071,172,ff64ffa3,1,0,1
281,281,0,0,0021008e,33,ffeeff84,1,0,1
282,282,0,0,ff70ffaf,-144,009e0061,1,0,1
283,283,0,0,fff9ff8d,-7,00180081,1,0,1
284,284,0,0,00ac006e,172,ff68ffa2,1,0,1
285,285,0,0,0023008f,35,ffecff83,1,0,1
286,286,0,0,ff72ffaf,-142,00a30061,1,0,1
287,287,0,0,fff9ff8b,-7,00180084,1,0,1
288,288,0,0,00ac006d,172,ff66ffa3,1,0,1
289,289,0,0,0022008e,34,fff0ff84,1,0,1
290,290,0,0,ff6dffb0,-147,00a20063,1,0,1
291,291,0,0,fffaff8e,-6,001a0084,1,0,1
292,292,0,0,00ae0070,174,ff66ffa3,1,0,1
293,293,0,0,0025008c,37,ffedff85,1,0,1
294,294,0,0,ff70ffaf,-144,00a4005f,1,0,1
295,295,0,0,fffaff8e,-6,001b0084,1,0,1
296,296,0,0,00ab006e,171,ff68ffa3,1,0,1
297,297,0,0,0026008e,38,ffebff85,1,0,1
298,298,0,0,ff6effac,-146,00a00061,1,0,1
299,299,0,0,fff8ff8c,-8,001a0081,1,0,1
300,300,0,0,00b0006e,176,ff67ffa2,1,0,1
301,301,0,0,0023008c,35,ffedff85,1,0,1
302,302,0,0,ff71ffb0,-143,00a10063,1,0,1
303,303,0,0,fff7ff8c,-9,001b0082,1,0,1
304,304,0,0,00ac0072,172,ff63ffa1,1,0,1
305,305,0,0,0026008d,38,ffedff83,1,0,1
306,306,0,0,ff71ffb2,-143,00a30064,1,0,1
307,307,0,0,fffaff8e,-6,001a0085,1,0,1
308,308,0,0,00ad006e,173,ff67ffa6,1,0,1
309,309,0,0,0025008c,37,ffebff84,1,0,1
310,310,0,0,ff6effaf,-146,009e0065,1,0,1
311,311,0,0,fffdff8f,-3,00150084,1,0,1
312,312,0,0,00ae0070,174,ff66ffa8,1,0,1
313,313,0,0,0021008c,33,ffecff85,1,0,1
314,314,0,0,ff6dffac,-147,00a10060,1,0,1
315,315,0,0,fff9ff8e,-7,00180086,1,0,1
316,316,0,0,00ae006f,174,ff66ffa5,1,0,1
317,317,0,0,0027008b,39,fff1ff85,1,0,1
318,318,0,0,ff70ffac,-144,00a30063,1,0,1
319,319,0,0,fff8ff8c,-8,001a0081,1,0,1
320,320,0,0,00af006c,175,ff65ffa2,1,0,1
321,321,0,0,0029008a,41,ffeeff86,1,0,1
322,322,0,0,ff6fffb0,-145,00a20061,1,0,1
323,323,0,0,fff8ff8d,-8,001b007f,1,0,1
324,324,0,0,00ad0070,173,ff66ffa3,1,0,1
325,325,0,0,0021008c,33,ffebff87,1,0,1
326,326,0,0,ff72ffad,-142,00a10065,1,0,1
327,327,0,0,fff6ff90,-10,001a0084,1,0,1
328,328,0,0,00ad006c,173,ff65ffa3,1,0,1
329,329,0,0,0025008d,37,ffedff87,1,0,1
330,330,0,0,ff6effaf,-146,00a20062,1,0,1
331,331,0,0,fffaff8e,-6,001a0080,1,0,1
332,332,0,0,00ae006f,174,ff66ffa3,1,0,1
333,333,0,0,0024008e,36,ffedff83,1,0,1
334,334,0,0,ff6effae,-146,00a00061,1,0,1
335,335,0,0,fff8ff8f,-8,00180085,1,0,1
336,336,0,0,00ab006c,171,ff62ffa4,1,0,1
337,337,0,0,0026008f,38,ffefff84,1,0,1
338,338,0,0,ff72ffad,-142,00a00062,1,0,1
339,339,0,0,fff9ff8f,-7,00170083,1,0,1
340,340,0,0,00ac006f,172,ff65ffa5,1,0,1
341,341,0,0,0026008d,38,ffedff82,1,0,1
342,342,0,0,ff6dffae,-147,009e0061,1,0,1
343,343,0,0,fffaff8e,-6,001b0081,1,0,1
344,344,0,0,00ac006f,172,ff67ffa4,1,0,1
345,345,0,0,0026008d,38,ffedff83,1,0,1
346,346,0,0,ff6effad,-146,00a00063,1,0,1
347,347,0,0,fffbff8d,-5,00160081,1,0,1
348,348,0,0,00ac0070,172,ff65ffa4,1,0,1
349,349,0,0,0024008e,36,ffeeff84,1,0,1
350,350,0,0,ff6fffad,-145,00a20062,1,0,1
351,351,0,0,fffaff8e,-6,001a0083,1,0,1
352,352,0,0,00ae006e,174,ff65ffa3,1,0,1
353,353,0,0,0024008e,36,ffeeff86,1,0,1
354,354,0,0,ff71ffad,-143,00a20063,1,0,1
355,355,0,0,fffaff8f,-6,00190083,1,0,1
356,356,0,0,00aa0070,170,ff66ffa5,1,0,1
357,357,0,0,0022008f,34,ffedff82,1,0,1
358,358,0,0,ff71ffad,-143,00a5005f,1,0,1
359,359,0,0,fffaff91,-6,001b0080,1,0,1
360,360,0,0,00a9006d,169,ff67ffa3,1,0,1
361,361,0,0,0024008f,36,ffeaff84,1,0,1
362,362,0,0,ff70ffac,-144,009f0061,1,0,1
363,363,0,0,fff9ff8f,-7,00180082,1,0,1
364,364,0,0,00ae0072,174,ff66ffa5,1,0,1
365,365,0,0,0025008b,37,ffecff85,1,0,1
366,366,0,0,ff72ffb0,-142,00a10062,1,0,1
367,367,0,0,fffaff8f,-6,00190087,1,0,1
368,368,0,0,00af006f,175,ff63ffa4,1,0,1
369,369,0,0,0024008e,36,ffeeff86,1,0,1
370,370,0,0,ff71ffac,-143,00a20063,1,0,1
371,371,0,0,fff8ff8f,-8,00160085,1,0,1
372,372,0,0,00ab0070,171,ff64ffa3,1,0,1
373,373,0,0,0026008c,38,ffeeff89,1,0,1
374,374,0,0,ff6fffb2,-145,00a10064,1,0,1
375,375,0,0,fff7ff8e,-9,00170082,1,0,1
376,376,0,0,00ab006d,171,ff65ffa5,1,0,1
377,377,0,0,0025008d,37,ffeeff85,1,0,1
378,378,0,0,ff6fffae,-145,009f0062,1,0,1
379,379,0,0,fff7ff91,-9,00190082,1,0,1
380,380,0,0,00ad006d,173,ff69ffa3,1,0,1
381,381,0,0,0023008e,35,ffecff84,1,0,1
382,382,0,0,ff6effaf,-146,00a20065,1,0,1
383,383,0,0,fff7ff8c,-9,00180082,1,0,1
384,384,0,0,00aa0072,170,ff67ffa4,1,0,1
385,385,0,0,00240091,36,ffefff83,1,0,1
386,386,0,0,ff6fffad,-145,00a00061,1,0,1
387,387,0,0,fff8ff90,-8,001b0086,1,0,1
388,388,0,0,00ac006f,172,ff65ffa3,1,0,1
389,389,0,0,0024008e,36,ffedff86,1,0,1
390,390,0,0,ff6effae,-146,009f0066,1,0,1
391,391,0,0,fff7ff8e,-9,001a0082,1,0,1
392,392,0,0,00ae0071,174,ff66ffa4,1,0,1
393,393,0,0,0024008e,36,ffeeff86,1,0,1
394,394,0,0,ff71ffb1,-143,009f0064,1,0,1
395,395,0,0,fff7ff8e,-9,001a0082,1,0,1
396,396,0,0,00ad0070,173,ff65ffa5,1,0,1
397,397,0,0,0020008d,32,ffeeff85,1,0,1
398,398,0,0,ff70ffaf,-144,00a10060,1,0,1
399,399,0,0,fff9ff8b,-7,001a0085,1,0,1
400,400,0,0,00ad006f,173,ff64ffa3,1,0,1
401,401,0,0,0024008d,36,ffebff83,1,0,1
402,402,0,0,ff70ffad,-144,00a30062,1,0,1
403,403,0,0,fffaff8d,-6,00180080,1,0,1
404,404,0,0,00ac006e,172,ff65ffa4,1,0,1
405,405,0,0,0022008e,34,ffecff82,1,0,1
406,406,0,0,ff6effae,-146,00a30062,1,0,1
407,407,0,0,fff9ff8f,-7,001b0081,1,0,1
408,408,0,0,00aa006f,170,ff66ffa2,1,0,1
409,409,0,0,0025008f,37,ffecff84,1,0,1
410,410,0,0,ff6dffaf,-147,00a30060,1,0,1
411,411,0,0,fff7ff8e,-9,00190082,1,0,1
412,412,0,0,00ac006f,172,ff65ffa3,1,0,1
413,413,0,0,0024008e,36,ffedff83,1,0,1
414,414,0,0,ff73ffac,-141,00a20063,1,0,1
415,415,0,0,fffaff8e,-6,001b0081,1,0,1
416,416,0,0,00aa0070,170,ff68ffa7,1,0,1
417,417,0,0,0021008e,33,ffebff83,1,0,1
418,418,0,0,ff6fffab,-145,00a10065,1,0,1
419,419,0,0,fffbff8f,-5,001b0086,1,0,1
420,420,0,0,00ad006e,173,ff63ffa3,1,0,1
421,421,0,0,00240090,36,ffedff85,1,0,1
422,422,0,0,ff70ffaf,-144,00a10064,1,0,1
423,423,0,0,fff6ff8d,-10,00170082,1,0,1
424,424,0,0,00ad0070,173,ff69ffa8,1,0,1
425,425,0,0,0026008b,38,ffedff85,1,0,1
426,426,0,0,ff6effaf,-146,00a20065,1,0,1
427,427,0,0,fffaff8f,-6,001c0083,1,0,1
428,428,0,0,00ab006c,171,ff66ffa3,1,0,1
429,429,0,0,0023008d,35,ffeeff85,1,0,1
430,430,0,0,ff73ffaf,-141,00a10062,1,0,1
431,431,0,0,fff8ff8e,-8,001b0080,1,0,1
432,432,0,0,00a90071,169,ff65ffa2,1,0,1
433,433,0,0,0024008e,36,ffecff86,1,0,1
434,434,0,0,ff71ffae,-143,00a10063,1,0,1
435,435,0,0,fff8ff8f,-8,001c0083,1,0,1
436,436,0,0,00ac0071,172,ff66ffa3,1,0,1
437,437,0,0,0023008d,35,ffefff83,1,0,1
438,438,0,0,ff6fffab,-145,00a10063,1,0,1
439,439,0,0,fffbff8f,-5,001a0084,1,0,1
440,440,0,0,00ab006d,171,ff67ffa6,1,0,1
441,441,0,0,0027008d,39,ffedff86,1,0,1
442,442,0,0,ff6fffae,-145,00a60060,1,0,1
443,443,0,0,fff6ff8f,-10,00180084,1,0,1
444,444,0,0,00ad006f,173,ff67ffa2,1,0,1
445,445,0,0,0021008e,33,ffecff86,1,0,1
446,446,0,0,ff71ffae,-143,00a30064,1,0,1
447,447,0,0,fff8ff8f,-8,001b0084,1,0,1
448,448,0,0,00ab006d,171,ff65ffa0,1,0,1
449,449,0,0,0025008d,37,fff0ff86,1,0,1
450,450,0,0,ff6effae,-146,00a00063,1,0,1
451,451,0,0,fffaff8f,-6,00180086,1,0,1
452,452,0,0,00ad0072,173,ff65ffa7,1,0,1
453,453,0,0,0024008b,36,ffecff86,1,0,1
454,454,0,0,ff6effae,-146,00a20061,1,0,1
455,455,0,0,fffbff8d,-5,001a0084,1,0,1
456,456,0,0,00ad006f,173,ff67ffa3,1,0,1
457,457,0,0,0025008f,37,ffedff85,1,0,1
458,458,0,0,ff6dffaf,-147,00a40062,1,0,1
459,459,0,0,fff5ff91,-11,00180081,1,0,1
460,460,0,0,00ab006f,171,ff66ffa3,1,0,1
461,461,0,0,0023008d,35,ffeeff84,1,0,1
462,462,0,0,ff70ffac,-144,00a20062,1,0,1
463,463,0,0,fff4ff8d,-12,00180081,1,0,1
464,464,0,0,00ac006c,172,ff68ffa5,1,0,1
465,465,0,0,0022008e,34,ffedff86,1,0,1
466,466,0,0,ff72ffaf,-142,00a30062,1,0,1
467,467,0,0,fffaff8e,-6,00190080,1,0,1
468,468,0,0,00aa006f,170,ff67ffa3,1,0,1
469,469,0,0,0025008c,37,ffedff86,1,0,1
470,470,0,0,ff6cffae,-148,00a20061,1,0,1
471,471,0,0,fff9ff90,-7,001a0083,1,0,1
472,472,0,0,00ad0070,173,ff67ffa5,1,0,1
473,473,0,0,0023008d,35,ffeeff83,1,0,1
474,474,0,0,ff72ffac,-142,009e0064,1,0,1
475,475,0,0,fff9ff8c,-7,001a0082,1,0,1
476,476,0,0,00ab0072,171,ff67ffa4,1,0,1
477,477,0,0,0024008b,36,ffecff84,1,0,1
478,478,0,0,ff6fffad,-145,00a10062,1,0,1
479,479,0,0,fff8ff8f,-8,00190082,1,0,1
480,480,0,0,00ad006f,173,ff67ffa5,1,0,1
481,481,0,0,0025008c,37,ffedff83,1,0,1
482,482,0,0,ff72ffae,-142,00a20066,1,0,1
483,483,0,0,fff7ff90,-9,001a0084,1,0,1
484,484,0,0,00ad006e,173,ff65ffa4,1,0,1
485,485,0,0,0023008e,35,ffeeff84,1,0,1
486,486,0,0,ff70ffaf,-144,00a30060,1,0,1
487,487,0,0,fff9ff8e,-7,001c0082,1,0,1
488,488,0,0,00aa006b,170,ff66ffa3,1,0,1
489,489,0,0,0025008d,37,ffedff85,1,0,1
490,490,0,0,ff73ffad,-141,009e0062,1,0,1
491,491,0,0,fff8ff8f,-8,001a0082,1,0,1
492,492,0,0,00b0006f,176,ff66ffa4,1,0,1
493,493,0,0,0025008b,37,ffedff85,1,0,1
494,494,0,0,ff70ffae,-144,009f0062,1,0,1
495,495,0,0,fff9ff8e,-7,001a0084,1,0,1
